T2E74 000:012.590   SEGGER J-Link V8.90 Log File
T2E74 000:012.818   DLL Compiled: Nov 26 2025 17:20:53
T2E74 000:012.831   Logging started @ 2025-11-28 04:56
T2E74 000:012.841   Process: C:\Users\roman.CAPNG\AppData\Local\Keil_v5\UV4\UV4.exe
T2E74 000:012.858 - 12.851ms 
T2E74 000:012.877 JLINK_SetWarnOutHandler(...)
T2E74 000:012.888 - 0.013ms 
T2E74 000:012.901 JLINK_OpenEx(...)
T2E74 000:018.928   Firmware: Silicon Labs J-Link OB compiled Nov 19 2024 20:58:50
T2E74 000:020.203   Firmware: Silicon Labs J-Link OB compiled Nov 19 2024 20:58:50
T2E74 000:021.936   Hardware: V3.00
T2E74 000:021.966   S/N: 440314163
T2E74 000:021.980   OEM: SEGGER
T2E74 000:021.994   Feature(s): RDI, FlashBP
T2E74 000:022.297   Bootloader: (FW returned invalid version)
T2E74 000:023.058   TELNET listener socket opened on port 19021
T2E74 000:023.257   WEBSRV WEBSRV_Init(): Starting webserver thread(s)
T2E74 000:023.475   WEBSRV Webserver running on local port 19080
T2E74 000:023.644   Looking for J-Link GUI Server exe at: C:\Users\roman.CAPNG\AppData\Local\Keil_v5\ARM\Segger\JLinkGUIServer.exe
T2E74 000:023.804   Looking for J-Link GUI Server exe at: C:\Program Files\SEGGER\JLink_V890\JLinkGUIServer.exe
T2E74 000:023.868   Forking J-Link GUI Server: C:\Program Files\SEGGER\JLink_V890\JLinkGUIServer.exe
T2E74 000:049.898   J-Link GUI Server info: "J-Link GUI server V8.90 "
T2E74 000:053.376 - 40.466ms returns "O.K."
T2E74 000:053.423 JLINK_GetEmuCaps()
T2E74 000:053.441 - 0.013ms returns 0xB8EA5A33
T2E74 000:053.461 JLINK_TIF_GetAvailable(...)
T2E74 000:053.739 - 0.279ms 
T2E74 000:053.780 JLINK_SetErrorOutHandler(...)
T2E74 000:053.794 - 0.013ms 
T2E74 000:053.835 JLINK_ExecCommand("ProjectFile = "C:\Projects\A121_board\STM32CubeMX_a121\MDK-ARM\JLinkSettings.ini"", ...). 
T2E74 000:073.688   Ref file found at: C:\Users\roman.CAPNG\AppData\Local\Keil_v5\ARM\Segger\JLinkDevices.ref
T2E74 000:073.871   REF file references invalid XML file: C:\Program Files\SEGGER\JLink_V890\JLinkDevices.xml
T2E74 000:075.461 - 21.628ms returns 0x00
T2E74 000:075.520 JLINK_ExecCommand("Device = STM32WB55REVx", ...). 
T2E74 000:077.050   Flash bank @ 0x08000000: SFL: Parsing sectorization info from ELF file
T2E74 000:077.074     FlashDevice.SectorInfo[0]: .SectorSize = 0x00001000, .SectorStartAddr = 0x00000000
T2E74 000:077.090   FlashBank @0x08000000: Sectorization info from SFL ELF file ignored because sectorization override from DLL / XML file is active.
T2E74 000:077.353   Flash bank @ 0x08000000: SFL: Parsing sectorization info from ELF file
T2E74 000:077.373     FlashDevice.SectorInfo[0]: .SectorSize = 0x00001000, .SectorStartAddr = 0x00000000
T2E74 000:077.388   FlashBank @0x1FFF8000: Sectorization info from SFL ELF file ignored because sectorization override from DLL / XML file is active.
T2E74 000:077.488   Flash bank @ 0x90000000: SFL: Parsing sectorization info from ELF file
T2E74 000:077.505     FlashDevice.SectorInfo[0]: .SectorSize = 0x00010000, .SectorStartAddr = 0x00000000
T2E74 000:093.705   Device "STM32WB55RE" selected.
T2E74 000:094.218 - 18.671ms returns 0x00
T2E74 000:094.253 JLINK_ExecCommand("DisableConnectionTimeout", ...). 
T2E74 000:094.277   ERROR: Unknown command
T2E74 000:094.293 - 0.024ms returns 0x01
T2E74 000:094.416 JLINK_GetHardwareVersion()
T2E74 000:094.445 - 0.028ms returns 30003
T2E74 000:094.458 JLINK_GetDLLVersion()
T2E74 000:094.469 - 0.010ms returns 89000
T2E74 000:094.481 JLINK_GetOEMString(...)
T2E74 000:094.493 JLINK_GetFirmwareString(...)
T2E74 000:094.503 - 0.010ms 
T2E74 000:094.540 JLINK_GetDLLVersion()
T2E74 000:094.552 - 0.011ms returns 89000
T2E74 000:094.565 JLINK_GetCompileDateTime()
T2E74 000:094.574 - 0.010ms 
T2E74 000:094.593 JLINK_GetFirmwareString(...)
T2E74 000:094.604 - 0.010ms 
T2E74 000:094.622 JLINK_GetHardwareVersion()
T2E74 000:094.633 - 0.010ms returns 30003
T2E74 000:094.649 JLINK_GetSN()
T2E74 000:094.660 - 0.010ms returns 440314163
T2E74 000:094.677 JLINK_GetOEMString(...)
T2E74 000:094.705 JLINK_TIF_Select(JLINKARM_TIF_SWD)
T2E74 000:095.802 - 1.101ms returns 0x00
T2E74 000:095.891 JLINK_HasError()
T2E74 000:095.916 JLINK_SetSpeed(5000)
T2E74 000:096.086 - 0.171ms 
T2E74 000:096.111 JLINK_GetId()
T2E74 000:096.609   InitTarget() start
T2E74 000:096.642    J-Link Script File: Executing InitTarget()
T2E74 000:097.042   SWD selected. Executing JTAG -> SWD switching sequence.
T2E74 000:099.244   DAP initialized successfully.
T2E74 000:110.887   InitTarget() end - Took 14.2ms
T2E74 000:111.645   Found SW-DP with ID 0x6BA02477
T2E74 000:114.699   DPIDR: 0x6BA02477
T2E74 000:114.730   CoreSight SoC-400 or earlier
T2E74 000:114.751   Scanning AP map to find all available APs
T2E74 000:115.904   AP[2]: Stopped AP scan as end of AP map has been reached
T2E74 000:115.934   AP[0]: AHB-AP (IDR: 0x24770011, ADDR: 0x00000000)
T2E74 000:115.954   AP[1]: AHB-AP (IDR: 0x84770001, ADDR: 0x01000000)
T2E74 000:115.975   Iterating through AP map to find AHB-AP to use
T2E74 000:117.215   AP[0]: Core found
T2E74 000:117.246   AP[0]: AHB-AP ROM base: 0xE00FF000
T2E74 000:117.806   CPUID register: 0x410FC241. Implementer code: 0x41 (ARM)
T2E74 000:117.837   Found Cortex-M4 r0p1, Little endian.
T2E74 000:118.246   -- Max. mem block: 0x00019B98
T2E74 000:118.795   Cortex-M: The connected J-Link (S/N 440314163) uses an old firmware module: V2 (current is 3)
T2E74 000:118.829   CPU_ReadMem(4 bytes @ 0xE000EDF0)
T2E74 000:119.323   CPU_ReadMem(4 bytes @ 0xE0002000)
T2E74 000:119.818   FPUnit: 6 code (BP) slots and 2 literal slots
T2E74 000:119.839   CPU_ReadMem(4 bytes @ 0xE000EDFC)
T2E74 000:120.263   CPU_WriteMem(4 bytes @ 0xE000EDFC)
T2E74 000:120.784   CPU_ReadMem(4 bytes @ 0xE0001000)
T2E74 000:121.230   CPU_WriteMem(4 bytes @ 0xE0001000)
T2E74 000:121.777   CPU_ReadMem(4 bytes @ 0xE000ED88)
T2E74 000:122.204   CPU_WriteMem(4 bytes @ 0xE000ED88)
T2E74 000:122.782   CPU_ReadMem(4 bytes @ 0xE000ED88)
T2E74 000:123.278   CPU_WriteMem(4 bytes @ 0xE000ED88)
T2E74 000:123.755   CoreSight components:
T2E74 000:123.782   ROMTbl[0] @ E00FF000
T2E74 000:123.799   CPU_ReadMem(64 bytes @ 0xE00FF000)
T2E74 000:124.834   CPU_ReadMem(32 bytes @ 0xE000EFE0)
T2E74 000:125.622   [0][0]: E000E000 CID B105E00D PID 000BB00C SCS-M7
T2E74 000:125.645   CPU_ReadMem(32 bytes @ 0xE0001FE0)
T2E74 000:126.315   [0][1]: E0001000 CID B105E00D PID 003BB002 DWT
T2E74 000:126.339   CPU_ReadMem(32 bytes @ 0xE0002FE0)
T2E74 000:127.190   [0][2]: E0002000 CID B105E00D PID 002BB003 FPB
T2E74 000:127.211   CPU_ReadMem(32 bytes @ 0xE0000FE0)
T2E74 000:127.904   [0][3]: E0000000 CID B105E00D PID 003BB001 ITM
T2E74 000:127.928   CPU_ReadMem(32 bytes @ 0xE0040FE0)
T2E74 000:128.712   [0][4]: E0040000 CID B105900D PID 000BB9A1 TPIU
T2E74 000:128.735   CPU_ReadMem(32 bytes @ 0xE0041FE0)
T2E74 000:129.463   [0][5]: E0041000 CID B105900D PID 000BB925 ETM
T2E74 000:129.487   CPU_ReadMem(32 bytes @ 0xE0043FE0)
T2E74 000:130.273   [0][6]: E0043000 CID B105900D PID 005BB906 CTI
T2E74 000:130.635 - 34.523ms returns 0x6BA02477
T2E74 000:130.675 JLINK_GetDLLVersion()
T2E74 000:130.688 - 0.011ms returns 89000
T2E74 000:130.700 JLINK_CORE_GetFound()
T2E74 000:130.710 - 0.010ms returns 0xE0000FF
T2E74 000:130.786 JLINK_GetDebugInfo(0x100 = JLINKARM_ROM_TABLE_ADDR_INDEX)
T2E74 000:130.806   Value=0xE00FF000
T2E74 000:130.822 - 0.036ms returns 0
T2E74 000:130.846 JLINK_GetDebugInfo(0x100 = JLINKARM_ROM_TABLE_ADDR_INDEX)
T2E74 000:130.857   Value=0xE00FF000
T2E74 000:130.872 - 0.026ms returns 0
T2E74 000:130.883 JLINK_GetDebugInfo(0x101 = JLINKARM_DEBUG_INFO_ETM_ADDR_INDEX)
T2E74 000:130.894   Value=0xE0041000
T2E74 000:130.908 - 0.025ms returns 0
T2E74 000:130.921 JLINK_ReadMemEx(0xE0041FD0, 0x20 Bytes, Flags = 0x02000004)
T2E74 000:130.952   CPU_ReadMem(32 bytes @ 0xE0041FD0)
T2E74 000:131.681   Data:  04 00 00 00 00 00 00 00 00 00 00 00 00 00 00 00 ...
T2E74 000:131.703 - 0.782ms returns 32 (0x20)
T2E74 000:131.717 JLINK_GetDebugInfo(0x102 = JLINKARM_DEBUG_INFO_MTB_ADDR_INDEX)
T2E74 000:131.728   Value=0x00000000
T2E74 000:131.742 - 0.025ms returns 0
T2E74 000:131.754 JLINK_GetDebugInfo(0x103 = JLINKARM_DEBUG_INFO_TPIU_ADDR_INDEX)
T2E74 000:131.833   Value=0xE0040000
T2E74 000:131.848 - 0.094ms returns 0
T2E74 000:131.861 JLINK_GetDebugInfo(0x104 = JLINKARM_DEBUG_INFO_ITM_ADDR_INDEX)
T2E74 000:131.871   Value=0xE0000000
T2E74 000:131.885 - 0.024ms returns 0
T2E74 000:131.897 JLINK_GetDebugInfo(0x105 = JLINKARM_DEBUG_INFO_DWT_ADDR_INDEX)
T2E74 000:131.907   Value=0xE0001000
T2E74 000:131.921 - 0.024ms returns 0
T2E74 000:131.933 JLINK_GetDebugInfo(0x106 = JLINKARM_DEBUG_INFO_FPB_ADDR_INDEX)
T2E74 000:131.942   Value=0xE0002000
T2E74 000:131.957 - 0.024ms returns 0
T2E74 000:131.968 JLINK_GetDebugInfo(0x107 = JLINKARM_DEBUG_INFO_NVIC_ADDR_INDEX)
T2E74 000:131.979   Value=0xE000E000
T2E74 000:131.993 - 0.025ms returns 0
T2E74 000:132.005 JLINK_GetDebugInfo(0x10C = JLINKARM_DEBUG_INFO_DBG_ADDR_INDEX)
T2E74 000:132.015   Value=0xE000EDF0
T2E74 000:132.029 - 0.024ms returns 0
T2E74 000:132.041 JLINK_GetDebugInfo(0x01 = Unknown)
T2E74 000:132.051   Value=0x00000001
T2E74 000:132.065 - 0.024ms returns 0
T2E74 000:132.077 JLINK_ReadMemU32(0xE000ED00, 0x1 Items)
T2E74 000:132.094   CPU_ReadMem(4 bytes @ 0xE000ED00)
T2E74 000:132.634   Data:  41 C2 0F 41
T2E74 000:132.662   Debug reg: CPUID
T2E74 000:132.678 - 0.600ms returns 1 (0x1)
T2E74 000:132.692 JLINK_GetDebugInfo(0x10F = JLINKARM_DEBUG_INFO_HAS_CORTEX_M_SECURITY_EXT_INDEX)
T2E74 000:132.703   Value=0x00000000
T2E74 000:132.717 - 0.025ms returns 0
T2E74 000:132.729 JLINK_HasError()
T2E74 000:132.742 JLINK_SetResetType(JLINKARM_CM3_RESET_TYPE_NORMAL)
T2E74 000:132.753 - 0.010ms returns JLINKARM_CM3_RESET_TYPE_NORMAL
T2E74 000:132.764 JLINK_Reset()
T2E74 000:132.780   JLINK_GetResetTypeDesc
T2E74 000:132.791   - 0.010ms 
T2E74 000:132.819   Reset type: NORMAL (https://kb.segger.com/J-Link_Reset_Strategies)
T2E74 000:132.835   CPU is running
T2E74 000:132.851   CPU_WriteMem(4 bytes @ 0xE000EDF0)
T2E74 000:133.457   CPU is running
T2E74 000:133.479   CPU_WriteMem(4 bytes @ 0xE000EDFC)
T2E74 000:133.987   Reset: Halt core after reset via DEMCR.VC_CORERESET.
T2E74 000:134.539   Reset: Reset device via AIRCR.SYSRESETREQ.
T2E74 000:134.564   CPU is running
T2E74 000:134.581   CPU_WriteMem(4 bytes @ 0xE000ED0C)
T2E74 000:189.708   CPU_ReadMem(4 bytes @ 0xE000EDF0)
T2E74 000:190.729   CPU_ReadMem(4 bytes @ 0xE000EDF0)
T2E74 000:197.752   CPU_WriteMem(4 bytes @ 0xE000EDFC)
T2E74 000:204.802   CPU_ReadMem(4 bytes @ 0xE000EDF0)
T2E74 000:211.590   CPU_WriteMem(4 bytes @ 0xE0002000)
T2E74 000:212.469   CPU_ReadMem(4 bytes @ 0xE000EDFC)
T2E74 000:213.544   CPU_ReadMem(4 bytes @ 0xE0001000)
T2E74 000:214.484 - 81.717ms 
T2E74 000:214.613 JLINK_HasError()
T2E74 000:214.670 JLINK_ReadReg(R15 (PC))
T2E74 000:214.711 - 0.053ms returns 0x080002E4
T2E74 000:214.757 JLINK_ReadReg(XPSR)
T2E74 000:214.788 - 0.030ms returns 0x01000000
T2E74 000:215.037 JLINK_Halt()
T2E74 000:215.107 - 0.068ms returns 0x00
T2E74 000:215.142 JLINK_ReadMemU32(0xE000EDF0, 0x1 Items)
T2E74 000:215.194   CPU_ReadMem(4 bytes @ 0xE000EDF0)
T2E74 000:216.096   Data:  03 00 03 00
T2E74 000:216.196   Debug reg: DHCSR
T2E74 000:216.237 - 1.094ms returns 1 (0x1)
T2E74 000:216.280 JLINK_WriteU32(0xE000EDF0, 0xA05F0003)
T2E74 000:216.307   Debug reg: DHCSR
T2E74 000:217.231   CPU_WriteMem(4 bytes @ 0xE000EDF0)
T2E74 000:218.154 - 1.872ms returns 0 (0x00000000)
T2E74 000:218.248 JLINK_WriteU32(0xE000EDFC, 0x01000000)
T2E74 000:218.278   Debug reg: DEMCR
T2E74 000:218.345   CPU_WriteMem(4 bytes @ 0xE000EDFC)
T2E74 000:219.178 - 0.928ms returns 0 (0x00000000)
T2E74 000:219.336 JLINK_GetHWStatus(...)
T2E74 000:219.845 - 0.506ms returns 0
T2E74 000:219.985 JLINK_GetNumBPUnits(Type = 0xFFFFFF00)
T2E74 000:220.021 - 0.036ms returns 0x06
T2E74 000:220.051 JLINK_GetNumBPUnits(Type = 0xF0)
T2E74 000:220.078 - 0.026ms returns 0x2000
T2E74 000:220.189 JLINK_GetNumWPUnits()
T2E74 000:220.219 - 0.029ms returns 4
T2E74 000:220.285 JLINK_GetSpeed()
T2E74 000:220.314 - 0.028ms returns 2200
T2E74 000:220.366 JLINK_ReadMemU32(0xE000E004, 0x1 Items)
T2E74 000:220.430   CPU_ReadMem(4 bytes @ 0xE000E004)
T2E74 000:221.281   Data:  02 00 00 00
T2E74 000:221.358 - 0.992ms returns 1 (0x1)
T2E74 000:221.398 JLINK_ReadMemU32(0xE000E004, 0x1 Items)
T2E74 000:221.444   CPU_ReadMem(4 bytes @ 0xE000E004)
T2E74 000:222.204   Data:  02 00 00 00
T2E74 000:222.282 - 0.883ms returns 1 (0x1)
T2E74 000:222.323 JLINK_WriteMemEx(0xE0001000, 0x0000001C Bytes, Flags = 0x02000004)
T2E74 000:222.352   Data:  01 00 00 00 00 00 00 00 00 00 00 00 00 00 00 00 ...
T2E74 000:222.417   CPU_WriteMem(28 bytes @ 0xE0001000)
T2E74 000:223.763 - 1.438ms returns 0x1C
T2E74 000:223.867 JLINK_HasError()
T2E74 000:223.905 JLINK_ReadReg(R15 (PC))
T2E74 000:223.944 - 0.038ms returns 0x080002E4
T2E74 000:223.978 JLINK_ReadReg(XPSR)
T2E74 000:224.006 - 0.028ms returns 0x01000000
T2E74 000:234.871 JLINK_ReadMemEx(0xE0001004, 0x4 Bytes, Flags = 0x02000000)
T2E74 000:234.936   Data:  00 00 00 00
T2E74 000:234.966   Debug reg: DWT_CYCCNT
T2E74 000:234.993 - 0.123ms returns 4 (0x4)
T2E74 000:390.920 JLINK_HasError()
T2E74 000:390.965 JLINK_SetResetType(JLINKARM_CM3_RESET_TYPE_NORMAL)
T2E74 000:390.978 - 0.012ms returns JLINKARM_CM3_RESET_TYPE_NORMAL
T2E74 000:390.990 JLINK_Reset()
T2E74 000:391.010   JLINK_GetResetTypeDesc
T2E74 000:391.021   - 0.011ms 
T2E74 000:391.050   Reset type: NORMAL (https://kb.segger.com/J-Link_Reset_Strategies)
T2E74 000:391.067   CPU_WriteMem(4 bytes @ 0xE000EDF0)
T2E74 000:391.693   CPU_WriteMem(4 bytes @ 0xE000EDFC)
T2E74 000:392.266   Reset: Halt core after reset via DEMCR.VC_CORERESET.
T2E74 000:392.883   Reset: Reset device via AIRCR.SYSRESETREQ.
T2E74 000:392.917   CPU_WriteMem(4 bytes @ 0xE000ED0C)
T2E74 000:448.079   CPU_ReadMem(4 bytes @ 0xE000EDF0)
T2E74 000:449.146   CPU_ReadMem(4 bytes @ 0xE000EDF0)
T2E74 000:450.139   CPU_WriteMem(4 bytes @ 0xE000EDFC)
T2E74 000:456.554   CPU_ReadMem(4 bytes @ 0xE000EDF0)
T2E74 000:462.783   CPU_WriteMem(4 bytes @ 0xE0002000)
T2E74 000:464.070   CPU_ReadMem(4 bytes @ 0xE000EDFC)
T2E74 000:465.000   CPU_ReadMem(4 bytes @ 0xE0001000)
T2E74 000:465.888 - 74.895ms 
T2E74 000:466.184 JLINK_HasError()
T2E74 000:466.228 JLINK_ReadReg(R15 (PC))
T2E74 000:466.265 - 0.036ms returns 0x080002E4
T2E74 000:466.319 JLINK_ReadReg(XPSR)
T2E74 000:466.351 - 0.031ms returns 0x01000000
T2E74 000:467.549 JLINK_ReadMemEx(0x080002E4, 0x3C Bytes, Flags = 0x02000000)
T2E74 000:467.616   CPU_ReadMem(128 bytes @ 0x080002C0)
T2E74 000:469.877    -- Updating C cache (128 bytes @ 0x080002C0)
T2E74 000:469.979    -- Read from C cache (60 bytes @ 0x080002E4)
T2E74 000:470.026   Data:  09 48 80 47 09 48 00 47 FE E7 FE E7 FE E7 FE E7 ...
T2E74 000:470.065 - 2.517ms returns 60 (0x3C)
T2E74 000:470.109 JLINK_ReadMemEx(0x080002E4, 0x2 Bytes, Flags = 0x02000000)
T2E74 000:470.143    -- Read from C cache (2 bytes @ 0x080002E4)
T2E74 000:470.182   Data:  09 48
T2E74 000:470.220 - 0.111ms returns 2 (0x2)
T2E74 000:470.454 JLINK_ReadMemEx(0x080002E6, 0x2 Bytes, Flags = 0x02000000)
T2E74 000:470.489    -- Read from C cache (2 bytes @ 0x080002E6)
T2E74 000:470.526   Data:  80 47
T2E74 000:470.564 - 0.110ms returns 2 (0x2)
T2E74 002:329.760 JLINK_ReadMemEx(0x080002E6, 0x2 Bytes, Flags = 0x02000000)
T2E74 002:329.799    -- Read from C cache (2 bytes @ 0x080002E6)
T2E74 002:329.816   Data:  80 47
T2E74 002:329.832 - 0.072ms returns 2 (0x2)
T2E74 002:329.846 JLINK_ReadMemEx(0x080002E8, 0x3C Bytes, Flags = 0x02000000)
T2E74 002:329.858    -- Read from C cache (60 bytes @ 0x080002E8)
T2E74 002:329.874   Data:  09 48 00 47 FE E7 FE E7 FE E7 FE E7 FE E7 FE E7 ...
T2E74 002:329.889 - 0.042ms returns 60 (0x3C)
T2E74 002:329.902 JLINK_ReadMemEx(0x080002E8, 0x2 Bytes, Flags = 0x02000000)
T2E74 002:329.913    -- Read from C cache (2 bytes @ 0x080002E8)
T2E74 002:329.927   Data:  09 48
T2E74 002:329.942 - 0.041ms returns 2 (0x2)
T2E74 002:674.566 JLINK_HasError()
T2E74 002:674.599 JLINK_ReadReg(R0)
T2E74 002:675.067 - 0.467ms returns 0x00000000
T2E74 002:675.088 JLINK_ReadReg(R1)
T2E74 002:675.100 - 0.012ms returns 0x00000000
T2E74 002:675.119 JLINK_ReadReg(R2)
T2E74 002:675.133 - 0.013ms returns 0x00000000
T2E74 002:675.144 JLINK_ReadReg(R3)
T2E74 002:675.155 - 0.010ms returns 0x00000000
T2E74 002:675.167 JLINK_ReadReg(R4)
T2E74 002:675.178 - 0.010ms returns 0x00000000
T2E74 002:675.190 JLINK_ReadReg(R5)
T2E74 002:675.200 - 0.010ms returns 0x00000000
T2E74 002:675.212 JLINK_ReadReg(R6)
T2E74 002:675.223 - 0.010ms returns 0x00000000
T2E74 002:675.235 JLINK_ReadReg(R7)
T2E74 002:675.245 - 0.010ms returns 0x00000000
T2E74 002:675.264 JLINK_ReadReg(R8)
T2E74 002:675.276 - 0.019ms returns 0x00000000
T2E74 002:675.288 JLINK_ReadReg(R9)
T2E74 002:675.299 - 0.010ms returns 0x00000000
T2E74 002:675.310 JLINK_ReadReg(R10)
T2E74 002:675.321 - 0.010ms returns 0x00000000
T2E74 002:675.333 JLINK_ReadReg(R11)
T2E74 002:675.343 - 0.010ms returns 0x00000000
T2E74 002:675.355 JLINK_ReadReg(R12)
T2E74 002:675.366 - 0.010ms returns 0x00000000
T2E74 002:675.378 JLINK_ReadReg(R13 (SP))
T2E74 002:675.389 - 0.010ms returns 0x20000A50
T2E74 002:675.401 JLINK_ReadReg(R14)
T2E74 002:675.412 - 0.010ms returns 0xFFFFFFFF
T2E74 002:675.424 JLINK_ReadReg(R15 (PC))
T2E74 002:675.434 - 0.010ms returns 0x080002E4
T2E74 002:675.446 JLINK_ReadReg(XPSR)
T2E74 002:675.457 - 0.011ms returns 0x01000000
T2E74 002:675.469 JLINK_ReadReg(MSP)
T2E74 002:675.480 - 0.010ms returns 0x20000A50
T2E74 002:675.492 JLINK_ReadReg(PSP)
T2E74 002:675.502 - 0.010ms returns 0x00000000
T2E74 002:675.514 JLINK_ReadReg(CFBP)
T2E74 002:675.525 - 0.010ms returns 0x00000000
T2E74 002:675.537 JLINK_ReadReg(FPSCR)
T2E74 002:682.688 - 7.150ms returns 0x00000000
T2E74 002:682.720 JLINK_ReadReg(FPS0)
T2E74 002:682.734 - 0.013ms returns 0x00000000
T2E74 002:682.746 JLINK_ReadReg(FPS1)
T2E74 002:682.757 - 0.010ms returns 0x00000000
T2E74 002:682.824 JLINK_ReadReg(FPS2)
T2E74 002:682.840 - 0.016ms returns 0x00000000
T2E74 002:682.853 JLINK_ReadReg(FPS3)
T2E74 002:682.863 - 0.010ms returns 0x00000000
T2E74 002:682.875 JLINK_ReadReg(FPS4)
T2E74 002:682.886 - 0.010ms returns 0x00000000
T2E74 002:682.897 JLINK_ReadReg(FPS5)
T2E74 002:682.908 - 0.010ms returns 0x00000000
T2E74 002:682.920 JLINK_ReadReg(FPS6)
T2E74 002:682.930 - 0.010ms returns 0x00000000
T2E74 002:682.942 JLINK_ReadReg(FPS7)
T2E74 002:682.952 - 0.010ms returns 0x00000000
T2E74 002:682.964 JLINK_ReadReg(FPS8)
T2E74 002:682.975 - 0.010ms returns 0x00000000
T2E74 002:682.986 JLINK_ReadReg(FPS9)
T2E74 002:682.997 - 0.010ms returns 0x00000000
T2E74 002:683.008 JLINK_ReadReg(FPS10)
T2E74 002:683.019 - 0.010ms returns 0x00000000
T2E74 002:683.031 JLINK_ReadReg(FPS11)
T2E74 002:683.041 - 0.010ms returns 0x00000000
T2E74 002:683.053 JLINK_ReadReg(FPS12)
T2E74 002:683.064 - 0.010ms returns 0x00000000
T2E74 002:683.075 JLINK_ReadReg(FPS13)
T2E74 002:683.085 - 0.010ms returns 0x00000000
T2E74 002:683.097 JLINK_ReadReg(FPS14)
T2E74 002:683.108 - 0.010ms returns 0x00000000
T2E74 002:683.119 JLINK_ReadReg(FPS15)
T2E74 002:683.130 - 0.010ms returns 0x00000000
T2E74 002:683.141 JLINK_ReadReg(FPS16)
T2E74 002:683.152 - 0.010ms returns 0x00000000
T2E74 002:683.163 JLINK_ReadReg(FPS17)
T2E74 002:683.174 - 0.010ms returns 0x00000000
T2E74 002:683.186 JLINK_ReadReg(FPS18)
T2E74 002:683.196 - 0.010ms returns 0x00000000
T2E74 002:683.208 JLINK_ReadReg(FPS19)
T2E74 002:683.219 - 0.010ms returns 0x00000000
T2E74 002:683.230 JLINK_ReadReg(FPS20)
T2E74 002:683.241 - 0.010ms returns 0x00000000
T2E74 002:683.253 JLINK_ReadReg(FPS21)
T2E74 002:683.263 - 0.010ms returns 0x00000000
T2E74 002:683.275 JLINK_ReadReg(FPS22)
T2E74 002:683.285 - 0.010ms returns 0x00000000
T2E74 002:683.297 JLINK_ReadReg(FPS23)
T2E74 002:683.308 - 0.010ms returns 0x00000000
T2E74 002:683.319 JLINK_ReadReg(FPS24)
T2E74 002:683.330 - 0.010ms returns 0x00000000
T2E74 002:683.341 JLINK_ReadReg(FPS25)
T2E74 002:683.352 - 0.010ms returns 0x00000000
T2E74 002:683.363 JLINK_ReadReg(FPS26)
T2E74 002:683.374 - 0.010ms returns 0x00000000
T2E74 002:683.385 JLINK_ReadReg(FPS27)
T2E74 002:683.396 - 0.010ms returns 0x00000000
T2E74 002:683.411 JLINK_ReadReg(FPS28)
T2E74 002:683.425 - 0.013ms returns 0x00000000
T2E74 002:683.437 JLINK_ReadReg(FPS29)
T2E74 002:683.447 - 0.010ms returns 0x00000000
T2E74 002:683.459 JLINK_ReadReg(FPS30)
T2E74 002:683.469 - 0.010ms returns 0x00000000
T2E74 002:683.481 JLINK_ReadReg(FPS31)
T2E74 002:683.492 - 0.010ms returns 0x00000000
T2DA0 002:801.728 JLINK_ReadMemEx(0x080002E4, 0x2 Bytes, Flags = 0x02000000)
T2DA0 002:801.770    -- Read from C cache (2 bytes @ 0x080002E4)
T2DA0 002:801.786   Data:  09 48
T2DA0 002:801.802 - 0.074ms returns 2 (0x2)
T2DA0 002:801.816 JLINK_HasError()
T2DA0 002:801.832 JLINK_SetBPEx(Addr = 0x08015CF4, Type = 0xFFFFFFF2)
T2DA0 002:801.847 - 0.016ms returns 0x00000001
T2DA0 002:801.859 JLINK_HasError()
T2DA0 002:801.871 JLINK_SetBPEx(Addr = 0x08015EDC, Type = 0xFFFFFFF2)
T2DA0 002:801.882 - 0.011ms returns 0x00000002
T2DA0 002:801.894 JLINK_HasError()
T2DA0 002:801.905 JLINK_HasError()
T2DA0 002:801.917 JLINK_Go()
T2DA0 002:801.937   CPU_WriteMem(4 bytes @ 0xE0002000)
T2DA0 002:802.619   CPU_WriteMem(4 bytes @ 0xE0002000)
T2DA0 002:803.160   CPU_ReadMem(4 bytes @ 0xE0001000)
T2DA0 002:803.705   CPU_WriteMem(4 bytes @ 0xE0002008)
T2DA0 002:803.739   CPU_WriteMem(4 bytes @ 0xE000200C)
T2DA0 002:803.755   CPU_WriteMem(4 bytes @ 0xE0002010)
T2DA0 002:803.770   CPU_WriteMem(4 bytes @ 0xE0002014)
T2DA0 002:803.785   CPU_WriteMem(4 bytes @ 0xE0002018)
T2DA0 002:803.800   CPU_WriteMem(4 bytes @ 0xE000201C)
T2DA0 002:806.167   CPU_WriteMem(4 bytes @ 0xE0001004)
T2DA0 002:808.032   Memory map 'after startup completion point' is active
T2DA0 002:808.068 - 6.150ms 
T2DA0 002:908.319 JLINK_HasError()
T2DA0 002:908.357 JLINK_IsHalted()
T2DA0 002:913.175 - 4.816ms returns TRUE
T2DA0 002:913.224 JLINK_HasError()
T2DA0 002:913.241 JLINK_Halt()
T2DA0 002:913.251 - 0.010ms returns 0x00
T2DA0 002:913.383 JLINK_IsHalted()
T2DA0 002:913.412 - 0.027ms returns TRUE
T2DA0 002:913.425 JLINK_IsHalted()
T2DA0 002:913.435 - 0.010ms returns TRUE
T2DA0 002:913.447 JLINK_IsHalted()
T2DA0 002:913.457 - 0.010ms returns TRUE
T2DA0 002:913.470 JLINK_HasError()
T2DA0 002:913.483 JLINK_ReadReg(R15 (PC))
T2DA0 002:913.498 - 0.014ms returns 0x08001E20
T2DA0 002:913.510 JLINK_ReadReg(XPSR)
T2DA0 002:913.521 - 0.010ms returns 0x21000000
T2DA0 002:913.536 JLINK_HasError()
T2DA0 002:913.558 JLINK_ClrBPEx(BPHandle = 0x00000001)
T2DA0 002:913.570 - 0.012ms returns 0x00
T2DA0 002:913.582 JLINK_HasError()
T2DA0 002:913.595 JLINK_ClrBPEx(BPHandle = 0x00000002)
T2DA0 002:913.606 - 0.010ms returns 0x00
T2DA0 002:913.617 JLINK_HasError()
T2DA0 002:913.630 JLINK_HasError()
T2DA0 002:913.643 JLINK_ReadMemU32(0xE000ED30, 0x1 Items)
T2DA0 002:913.663   CPU_ReadMem(4 bytes @ 0xE000ED30)
T2DA0 002:914.205   Data:  02 00 00 00
T2DA0 002:914.235 - 0.592ms returns 1 (0x1)
T2DA0 002:914.251 JLINK_ReadMemU32(0xE0001028, 0x1 Items)
T2DA0 002:914.269   CPU_ReadMem(4 bytes @ 0xE0001028)
T2DA0 002:914.843   Data:  00 00 00 00
T2DA0 002:914.874   Debug reg: DWT_FUNC[0]
T2DA0 002:914.890 - 0.638ms returns 1 (0x1)
T2DA0 002:914.905 JLINK_ReadMemU32(0xE0001038, 0x1 Items)
T2DA0 002:914.923   CPU_ReadMem(4 bytes @ 0xE0001038)
T2DA0 002:915.547   Data:  00 02 00 00
T2DA0 002:915.577   Debug reg: DWT_FUNC[1]
T2DA0 002:915.592 - 0.687ms returns 1 (0x1)
T2DA0 002:915.608 JLINK_ReadMemU32(0xE0001048, 0x1 Items)
T2DA0 002:915.626   CPU_ReadMem(4 bytes @ 0xE0001048)
T2DA0 002:916.234   Data:  00 00 00 00
T2DA0 002:916.264   Debug reg: DWT_FUNC[2]
T2DA0 002:916.280 - 0.672ms returns 1 (0x1)
T2DA0 002:916.294 JLINK_ReadMemU32(0xE0001058, 0x1 Items)
T2DA0 002:916.313   CPU_ReadMem(4 bytes @ 0xE0001058)
T2DA0 002:916.806   Data:  00 00 00 00
T2DA0 002:916.836   Debug reg: DWT_FUNC[3]
T2DA0 002:916.851 - 0.556ms returns 1 (0x1)
T2DA0 002:916.940 JLINK_HasError()
T2DA0 002:916.956 JLINK_ReadReg(R0)
T2DA0 002:916.970 - 0.014ms returns 0x00000001
T2DA0 002:916.983 JLINK_ReadReg(R1)
T2DA0 002:916.993 - 0.010ms returns 0x20000A08
T2DA0 002:917.005 JLINK_ReadReg(R2)
T2DA0 002:917.020 - 0.015ms returns 0x80000000
T2DA0 002:917.035 JLINK_ReadReg(R3)
T2DA0 002:917.046 - 0.010ms returns 0x08018793
T2DA0 002:917.058 JLINK_ReadReg(R4)
T2DA0 002:917.068 - 0.010ms returns 0x00000000
T2DA0 002:917.080 JLINK_ReadReg(R5)
T2DA0 002:917.090 - 0.010ms returns 0x00000001
T2DA0 002:917.102 JLINK_ReadReg(R6)
T2DA0 002:917.112 - 0.010ms returns 0x200001C0
T2DA0 002:917.124 JLINK_ReadReg(R7)
T2DA0 002:917.134 - 0.010ms returns 0x08018792
T2DA0 002:917.146 JLINK_ReadReg(R8)
T2DA0 002:917.156 - 0.010ms returns 0x00000000
T2DA0 002:917.168 JLINK_ReadReg(R9)
T2DA0 002:917.178 - 0.010ms returns 0x00000000
T2DA0 002:917.190 JLINK_ReadReg(R10)
T2DA0 002:917.201 - 0.010ms returns 0x0801D4D4
T2DA0 002:917.222 JLINK_ReadReg(R11)
T2DA0 002:917.234 - 0.012ms returns 0x00000000
T2DA0 002:917.245 JLINK_ReadReg(R12)
T2DA0 002:917.256 - 0.010ms returns 0x00000000
T2DA0 002:917.267 JLINK_ReadReg(R13 (SP))
T2DA0 002:917.279 - 0.011ms returns 0x20000A08
T2DA0 002:917.290 JLINK_ReadReg(R14)
T2DA0 002:917.301 - 0.010ms returns 0x08001E1B
T2DA0 002:917.312 JLINK_ReadReg(R15 (PC))
T2DA0 002:917.324 - 0.011ms returns 0x08001E20
T2DA0 002:917.335 JLINK_ReadReg(XPSR)
T2DA0 002:917.346 - 0.010ms returns 0x21000000
T2DA0 002:917.358 JLINK_ReadReg(MSP)
T2DA0 002:917.369 - 0.010ms returns 0x20000A08
T2DA0 002:917.381 JLINK_ReadReg(PSP)
T2DA0 002:917.392 - 0.010ms returns 0x00000000
T2DA0 002:917.403 JLINK_ReadReg(CFBP)
T2DA0 002:917.414 - 0.010ms returns 0x04000000
T2DA0 002:917.426 JLINK_ReadReg(FPSCR)
T2DA0 002:924.612 - 7.185ms returns 0x03000000
T2DA0 002:924.641 JLINK_ReadReg(FPS0)
T2DA0 002:924.655 - 0.013ms returns 0x00000000
T2DA0 002:924.667 JLINK_ReadReg(FPS1)
T2DA0 002:924.678 - 0.010ms returns 0x00000000
T2DA0 002:924.689 JLINK_ReadReg(FPS2)
T2DA0 002:924.700 - 0.010ms returns 0x00000000
T2DA0 002:924.712 JLINK_ReadReg(FPS3)
T2DA0 002:924.722 - 0.010ms returns 0x00000000
T2DA0 002:924.734 JLINK_ReadReg(FPS4)
T2DA0 002:924.744 - 0.010ms returns 0x00000000
T2DA0 002:924.756 JLINK_ReadReg(FPS5)
T2DA0 002:924.766 - 0.010ms returns 0x00000000
T2DA0 002:924.778 JLINK_ReadReg(FPS6)
T2DA0 002:924.789 - 0.010ms returns 0x00000000
T2DA0 002:924.800 JLINK_ReadReg(FPS7)
T2DA0 002:924.810 - 0.010ms returns 0x00000000
T2DA0 002:924.822 JLINK_ReadReg(FPS8)
T2DA0 002:924.833 - 0.010ms returns 0x00000000
T2DA0 002:924.844 JLINK_ReadReg(FPS9)
T2DA0 002:924.855 - 0.010ms returns 0x00000000
T2DA0 002:924.866 JLINK_ReadReg(FPS10)
T2DA0 002:924.877 - 0.010ms returns 0x00000000
T2DA0 002:924.889 JLINK_ReadReg(FPS11)
T2DA0 002:924.899 - 0.010ms returns 0x00000000
T2DA0 002:924.911 JLINK_ReadReg(FPS12)
T2DA0 002:924.922 - 0.010ms returns 0x00000000
T2DA0 002:924.933 JLINK_ReadReg(FPS13)
T2DA0 002:924.944 - 0.010ms returns 0x00000000
T2DA0 002:924.955 JLINK_ReadReg(FPS14)
T2DA0 002:924.966 - 0.010ms returns 0x00000000
T2DA0 002:924.977 JLINK_ReadReg(FPS15)
T2DA0 002:924.987 - 0.010ms returns 0x00000000
T2DA0 002:924.999 JLINK_ReadReg(FPS16)
T2DA0 002:925.010 - 0.010ms returns 0x00000000
T2DA0 002:925.021 JLINK_ReadReg(FPS17)
T2DA0 002:925.031 - 0.010ms returns 0x00000000
T2DA0 002:925.043 JLINK_ReadReg(FPS18)
T2DA0 002:925.054 - 0.010ms returns 0x00000000
T2DA0 002:925.065 JLINK_ReadReg(FPS19)
T2DA0 002:925.075 - 0.010ms returns 0x00000000
T2DA0 002:925.087 JLINK_ReadReg(FPS20)
T2DA0 002:925.097 - 0.010ms returns 0x00000000
T2DA0 002:925.109 JLINK_ReadReg(FPS21)
T2DA0 002:925.119 - 0.010ms returns 0x00000000
T2DA0 002:925.131 JLINK_ReadReg(FPS22)
T2DA0 002:925.141 - 0.010ms returns 0x00000000
T2DA0 002:925.153 JLINK_ReadReg(FPS23)
T2DA0 002:925.163 - 0.010ms returns 0x00000000
T2DA0 002:925.175 JLINK_ReadReg(FPS24)
T2DA0 002:925.186 - 0.010ms returns 0x00000000
T2DA0 002:925.197 JLINK_ReadReg(FPS25)
T2DA0 002:925.208 - 0.010ms returns 0x00000000
T2DA0 002:925.258 JLINK_ReadReg(FPS26)
T2DA0 002:925.269 - 0.011ms returns 0x00000000
T2DA0 002:925.281 JLINK_ReadReg(FPS27)
T2DA0 002:925.292 - 0.010ms returns 0x00000000
T2DA0 002:925.303 JLINK_ReadReg(FPS28)
T2DA0 002:925.318 - 0.015ms returns 0x00000000
T2DA0 002:925.333 JLINK_ReadReg(FPS29)
T2DA0 002:925.344 - 0.010ms returns 0x00000000
T2DA0 002:925.356 JLINK_ReadReg(FPS30)
T2DA0 002:925.366 - 0.010ms returns 0x00000000
T2DA0 002:925.378 JLINK_ReadReg(FPS31)
T2DA0 002:925.389 - 0.010ms returns 0x00000000
T2E74 002:926.902 JLINK_ReadMemEx(0x20000A14, 0x4 Bytes, Flags = 0x02000000)
T2E74 002:926.942   CPU_ReadMem(64 bytes @ 0x20000A00)
T2E74 002:928.054    -- Updating C cache (64 bytes @ 0x20000A00)
T2E74 002:928.085    -- Read from C cache (4 bytes @ 0x20000A14)
T2E74 002:928.101   Data:  C5 1C 00 08
T2E74 002:928.117 - 1.215ms returns 4 (0x4)
T2E74 002:928.216 JLINK_ReadMemEx(0x20000A14, 0x4 Bytes, Flags = 0x02000000)
T2E74 002:928.234    -- Read from C cache (4 bytes @ 0x20000A14)
T2E74 002:928.254   Data:  C5 1C 00 08
T2E74 002:928.275 - 0.059ms returns 4 (0x4)
T2E74 002:928.295 JLINK_ReadMemEx(0x20000A2C, 0x4 Bytes, Flags = 0x02000000)
T2E74 002:928.308    -- Read from C cache (4 bytes @ 0x20000A2C)
T2E74 002:928.323   Data:  1D 17 00 08
T2E74 002:928.338 - 0.043ms returns 4 (0x4)
T2E74 002:928.351 JLINK_ReadMemEx(0x20000A18, 0x4 Bytes, Flags = 0x02000000)
T2E74 002:928.364    -- Read from C cache (4 bytes @ 0x20000A18)
T2E74 002:928.379   Data:  DC 02 00 20
T2E74 002:928.400 - 0.048ms returns 4 (0x4)
T2E74 002:928.418 JLINK_ReadMemEx(0x20000A1C, 0x4 Bytes, Flags = 0x02000000)
T2E74 002:928.430    -- Read from C cache (4 bytes @ 0x20000A1C)
T2E74 002:928.445   Data:  BC 02 00 20
T2E74 002:928.460 - 0.042ms returns 4 (0x4)
T2E74 002:928.472 JLINK_ReadMemEx(0x20000A20, 0x4 Bytes, Flags = 0x02000000)
T2E74 002:928.484    -- Read from C cache (4 bytes @ 0x20000A20)
T2E74 002:928.499   Data:  00 00 00 00
T2E74 002:928.514 - 0.041ms returns 4 (0x4)
T2E74 002:928.526 JLINK_ReadMemEx(0x20000A24, 0x4 Bytes, Flags = 0x02000000)
T2E74 002:928.537    -- Read from C cache (4 bytes @ 0x20000A24)
T2E74 002:928.552   Data:  00 00 00 00
T2E74 002:928.566 - 0.040ms returns 4 (0x4)
T2E74 002:928.578 JLINK_ReadMemEx(0x20000A28, 0x4 Bytes, Flags = 0x02000000)
T2E74 002:928.590    -- Read from C cache (4 bytes @ 0x20000A28)
T2E74 002:928.605   Data:  00 00 00 00
T2E74 002:928.619 - 0.041ms returns 4 (0x4)
T2E74 002:928.632 JLINK_ReadMemEx(0x20000A2C, 0x4 Bytes, Flags = 0x02000000)
T2E74 002:928.643    -- Read from C cache (4 bytes @ 0x20000A2C)
T2E74 002:928.658   Data:  1D 17 00 08
T2E74 002:928.672 - 0.040ms returns 4 (0x4)
T2E74 002:928.686 JLINK_ReadMemEx(0x20000A34, 0x4 Bytes, Flags = 0x02000000)
T2E74 002:928.697    -- Read from C cache (4 bytes @ 0x20000A34)
T2E74 002:928.712   Data:  BB 02 00 08
T2E74 002:928.727 - 0.041ms returns 4 (0x4)
T2E74 002:928.752 JLINK_ReadMemEx(0x20000A30, 0x4 Bytes, Flags = 0x02000000)
T2E74 002:928.765    -- Read from C cache (4 bytes @ 0x20000A30)
T2E74 002:928.780   Data:  DC 02 00 20
T2E74 002:928.795 - 0.043ms returns 4 (0x4)
T2E74 002:928.807 JLINK_ReadMemEx(0x20000A34, 0x4 Bytes, Flags = 0x02000000)
T2E74 002:928.818    -- Read from C cache (4 bytes @ 0x20000A34)
T2E74 002:928.833   Data:  BB 02 00 08
T2E74 002:928.848 - 0.041ms returns 4 (0x4)
T2E74 002:930.826 JLINK_HasError()
T2E74 002:930.856 JLINK_ReadMemU32(0xE0001004, 0x1 Items)
T2E74 002:930.877   CPU_ReadMem(4 bytes @ 0xE0001004)
T2E74 002:931.363   Data:  FB 0F 00 00
T2E74 002:931.393   Debug reg: DWT_CYCCNT
T2E74 002:931.409 - 0.552ms returns 1 (0x1)
T2E74 002:935.627 JLINK_ReadMemEx(0x08001E20, 0x3C Bytes, Flags = 0x02000000)
T2E74 002:935.664   CPU_ReadMem(128 bytes @ 0x08001E00)
T2E74 002:937.296    -- Updating C cache (128 bytes @ 0x08001E00)
T2E74 002:937.327    -- Read from C cache (60 bytes @ 0x08001E20)
T2E74 002:937.344   Data:  AB BE 0E BD 08 B5 69 46 00 90 02 20 AB BE 08 BD ...
T2E74 002:937.360 - 1.733ms returns 60 (0x3C)
T2E74 002:937.376 JLINK_ReadMemEx(0x08001E20, 0x2 Bytes, Flags = 0x02000000)
T2E74 002:937.389    -- Read from C cache (2 bytes @ 0x08001E20)
T2E74 002:937.404   Data:  AB BE
T2E74 002:937.419 - 0.043ms returns 2 (0x2)
T2E74 002:937.432 JLINK_ReadMemEx(0x08001E22, 0x2 Bytes, Flags = 0x02000000)
T2E74 002:937.511    -- Read from C cache (2 bytes @ 0x08001E22)
T2E74 002:937.527   Data:  0E BD
T2E74 002:937.541 - 0.109ms returns 2 (0x2)
T2E74 002:937.564 JLINK_ReadMemEx(0x08001E22, 0x2 Bytes, Flags = 0x02000000)
T2E74 002:937.577    -- Read from C cache (2 bytes @ 0x08001E22)
T2E74 002:937.592   Data:  0E BD
T2E74 002:937.606 - 0.042ms returns 2 (0x2)
T2E74 002:937.618 JLINK_ReadMemEx(0x08001E24, 0x3C Bytes, Flags = 0x02000000)
T2E74 002:937.630    -- Read from C cache (60 bytes @ 0x08001E24)
T2E74 002:937.646   Data:  08 B5 69 46 00 90 02 20 AB BE 08 BD 1F B5 8D E8 ...
T2E74 002:937.660 - 0.041ms returns 60 (0x3C)
T2E74 002:937.672 JLINK_ReadMemEx(0x08001E24, 0x2 Bytes, Flags = 0x02000000)
T2E74 002:937.683    -- Read from C cache (2 bytes @ 0x08001E24)
T2E74 002:937.697   Data:  08 B5
T2E74 002:937.712 - 0.040ms returns 2 (0x2)
T2E74 002:937.728 JLINK_ReadMemEx(0x08001E24, 0x3C Bytes, Flags = 0x02000000)
T2E74 002:937.740    -- Read from C cache (60 bytes @ 0x08001E24)
T2E74 002:937.756   Data:  08 B5 69 46 00 90 02 20 AB BE 08 BD 1F B5 8D E8 ...
T2E74 002:937.770 - 0.042ms returns 60 (0x3C)
T2E74 002:937.782 JLINK_ReadMemEx(0x08001E24, 0x2 Bytes, Flags = 0x02000000)
T2E74 002:937.793    -- Read from C cache (2 bytes @ 0x08001E24)
T2E74 002:937.808   Data:  08 B5
T2E74 002:937.822 - 0.040ms returns 2 (0x2)
T2E74 002:937.834 JLINK_ReadMemEx(0x08001E26, 0x2 Bytes, Flags = 0x02000000)
T2E74 002:937.845    -- Read from C cache (2 bytes @ 0x08001E26)
T2E74 002:937.860   Data:  69 46
T2E74 002:937.874 - 0.040ms returns 2 (0x2)
T2DA0 008:248.536 JLINK_ReadMemEx(0x08001E20, 0x2 Bytes, Flags = 0x02000000)
T2DA0 008:248.581    -- Read from C cache (2 bytes @ 0x08001E20)
T2DA0 008:248.597   Data:  AB BE
T2DA0 008:248.614 - 0.078ms returns 2 (0x2)
T2DA0 008:248.629 JLINK_HasError()
T2DA0 008:248.645 JLINK_WriteReg(R15 (PC), 0x08001E22)
T2DA0 008:248.660 - 0.015ms returns 0
T2DA0 008:248.672 JLINK_HasError()
T2DA0 008:248.685 JLINK_SetBPEx(Addr = 0x08015EE4, Type = 0xFFFFFFF2)
T2DA0 008:248.697 - 0.013ms returns 0x00000003
T2DA0 008:248.709 JLINK_HasError()
T2DA0 008:248.721 JLINK_HasError()
T2DA0 008:248.734 JLINK_Go()
T2DA0 008:249.368   CPU_WriteMem(4 bytes @ 0xE0002000)
T2DA0 008:249.965   CPU_ReadMem(4 bytes @ 0xE0001000)
T2DA0 008:250.606   CPU_WriteMem(4 bytes @ 0xE0002008)
T2DA0 008:250.641   CPU_WriteMem(4 bytes @ 0xE000200C)
T2DA0 008:252.987 - 4.251ms 
T2DA0 008:354.070 JLINK_HasError()
T2DA0 008:354.113 JLINK_IsHalted()
T2DA0 008:358.974 - 4.859ms returns TRUE
T2DA0 008:359.010 JLINK_HasError()
T2DA0 008:359.023 JLINK_Halt()
T2DA0 008:359.034 - 0.010ms returns 0x00
T2DA0 008:359.046 JLINK_IsHalted()
T2DA0 008:359.057 - 0.010ms returns TRUE
T2DA0 008:359.068 JLINK_IsHalted()
T2DA0 008:359.078 - 0.010ms returns TRUE
T2DA0 008:359.089 JLINK_IsHalted()
T2DA0 008:359.100 - 0.010ms returns TRUE
T2DA0 008:359.111 JLINK_HasError()
T2DA0 008:359.124 JLINK_ReadReg(R15 (PC))
T2DA0 008:359.137 - 0.014ms returns 0x08001E20
T2DA0 008:359.150 JLINK_ReadReg(XPSR)
T2DA0 008:359.161 - 0.010ms returns 0x21000000
T2DA0 008:359.177 JLINK_HasError()
T2DA0 008:359.189 JLINK_ClrBPEx(BPHandle = 0x00000003)
T2DA0 008:359.201 - 0.012ms returns 0x00
T2DA0 008:359.213 JLINK_HasError()
T2DA0 008:359.225 JLINK_HasError()
T2DA0 008:359.237 JLINK_ReadMemU32(0xE000ED30, 0x1 Items)
T2DA0 008:359.257   CPU_ReadMem(4 bytes @ 0xE000ED30)
T2DA0 008:359.841   Data:  02 00 00 00
T2DA0 008:359.873 - 0.635ms returns 1 (0x1)
T2DA0 008:359.889 JLINK_ReadMemU32(0xE0001028, 0x1 Items)
T2DA0 008:359.907   CPU_ReadMem(4 bytes @ 0xE0001028)
T2DA0 008:360.473   Data:  00 00 00 00
T2DA0 008:360.504   Debug reg: DWT_FUNC[0]
T2DA0 008:360.519 - 0.630ms returns 1 (0x1)
T2DA0 008:360.535 JLINK_ReadMemU32(0xE0001038, 0x1 Items)
T2DA0 008:360.553   CPU_ReadMem(4 bytes @ 0xE0001038)
T2DA0 008:361.129   Data:  00 02 00 00
T2DA0 008:361.161   Debug reg: DWT_FUNC[1]
T2DA0 008:361.177 - 0.642ms returns 1 (0x1)
T2DA0 008:361.193 JLINK_ReadMemU32(0xE0001048, 0x1 Items)
T2DA0 008:361.222   CPU_ReadMem(4 bytes @ 0xE0001048)
T2DA0 008:361.802   Data:  00 00 00 00
T2DA0 008:361.834   Debug reg: DWT_FUNC[2]
T2DA0 008:361.850 - 0.658ms returns 1 (0x1)
T2DA0 008:361.865 JLINK_ReadMemU32(0xE0001058, 0x1 Items)
T2DA0 008:361.884   CPU_ReadMem(4 bytes @ 0xE0001058)
T2DA0 008:362.525   Data:  00 00 00 00
T2DA0 008:362.556   Debug reg: DWT_FUNC[3]
T2DA0 008:362.572 - 0.706ms returns 1 (0x1)
T2DA0 008:362.670 JLINK_HasError()
T2DA0 008:362.685 JLINK_ReadReg(R0)
T2DA0 008:362.700 - 0.013ms returns 0x00000001
T2DA0 008:362.712 JLINK_ReadReg(R1)
T2DA0 008:362.723 - 0.010ms returns 0x20000A08
T2DA0 008:362.734 JLINK_ReadReg(R2)
T2DA0 008:362.745 - 0.010ms returns 0x80000000
T2DA0 008:362.756 JLINK_ReadReg(R3)
T2DA0 008:362.766 - 0.010ms returns 0x08018797
T2DA0 008:362.778 JLINK_ReadReg(R4)
T2DA0 008:362.789 - 0.010ms returns 0x00000004
T2DA0 008:362.800 JLINK_ReadReg(R5)
T2DA0 008:362.811 - 0.010ms returns 0x00000002
T2DA0 008:362.822 JLINK_ReadReg(R6)
T2DA0 008:362.833 - 0.010ms returns 0x20000214
T2DA0 008:362.845 JLINK_ReadReg(R7)
T2DA0 008:362.855 - 0.010ms returns 0x08018796
T2DA0 008:362.867 JLINK_ReadReg(R8)
T2DA0 008:362.878 - 0.010ms returns 0x00000000
T2DA0 008:362.889 JLINK_ReadReg(R9)
T2DA0 008:362.901 - 0.010ms returns 0x00000000
T2DA0 008:362.912 JLINK_ReadReg(R10)
T2DA0 008:362.923 - 0.010ms returns 0x0801D4D4
T2DA0 008:362.934 JLINK_ReadReg(R11)
T2DA0 008:362.945 - 0.010ms returns 0x00000000
T2DA0 008:362.956 JLINK_ReadReg(R12)
T2DA0 008:362.966 - 0.010ms returns 0x00000000
T2DA0 008:362.978 JLINK_ReadReg(R13 (SP))
T2DA0 008:362.989 - 0.011ms returns 0x20000A08
T2DA0 008:363.001 JLINK_ReadReg(R14)
T2DA0 008:363.012 - 0.010ms returns 0x08001E1B
T2DA0 008:363.023 JLINK_ReadReg(R15 (PC))
T2DA0 008:363.033 - 0.010ms returns 0x08001E20
T2DA0 008:363.045 JLINK_ReadReg(XPSR)
T2DA0 008:363.056 - 0.010ms returns 0x21000000
T2DA0 008:363.067 JLINK_ReadReg(MSP)
T2DA0 008:363.078 - 0.010ms returns 0x20000A08
T2DA0 008:363.089 JLINK_ReadReg(PSP)
T2DA0 008:363.101 - 0.010ms returns 0x00000000
T2DA0 008:363.112 JLINK_ReadReg(CFBP)
T2DA0 008:363.123 - 0.010ms returns 0x04000000
T2DA0 008:363.135 JLINK_ReadReg(FPSCR)
T2DA0 008:370.340 - 7.203ms returns 0x03000000
T2DA0 008:370.373 JLINK_ReadReg(FPS0)
T2DA0 008:370.388 - 0.015ms returns 0x00000000
T2DA0 008:370.400 JLINK_ReadReg(FPS1)
T2DA0 008:370.411 - 0.010ms returns 0x00000000
T2DA0 008:370.422 JLINK_ReadReg(FPS2)
T2DA0 008:370.433 - 0.010ms returns 0x00000000
T2DA0 008:370.445 JLINK_ReadReg(FPS3)
T2DA0 008:370.455 - 0.010ms returns 0x00000000
T2DA0 008:370.467 JLINK_ReadReg(FPS4)
T2DA0 008:370.477 - 0.010ms returns 0x00000000
T2DA0 008:370.489 JLINK_ReadReg(FPS5)
T2DA0 008:370.501 - 0.010ms returns 0x00000000
T2DA0 008:370.512 JLINK_ReadReg(FPS6)
T2DA0 008:370.522 - 0.010ms returns 0x00000000
T2DA0 008:370.534 JLINK_ReadReg(FPS7)
T2DA0 008:370.545 - 0.010ms returns 0x00000000
T2DA0 008:370.557 JLINK_ReadReg(FPS8)
T2DA0 008:370.568 - 0.010ms returns 0x00000000
T2DA0 008:370.579 JLINK_ReadReg(FPS9)
T2DA0 008:370.589 - 0.010ms returns 0x00000000
T2DA0 008:370.601 JLINK_ReadReg(FPS10)
T2DA0 008:370.612 - 0.010ms returns 0x00000000
T2DA0 008:370.623 JLINK_ReadReg(FPS11)
T2DA0 008:370.634 - 0.010ms returns 0x00000000
T2DA0 008:370.645 JLINK_ReadReg(FPS12)
T2DA0 008:370.656 - 0.010ms returns 0x00000000
T2DA0 008:370.667 JLINK_ReadReg(FPS13)
T2DA0 008:370.678 - 0.010ms returns 0x00000000
T2DA0 008:370.689 JLINK_ReadReg(FPS14)
T2DA0 008:370.700 - 0.010ms returns 0x00000000
T2DA0 008:370.712 JLINK_ReadReg(FPS15)
T2DA0 008:370.722 - 0.010ms returns 0x00000000
T2DA0 008:370.733 JLINK_ReadReg(FPS16)
T2DA0 008:370.745 - 0.010ms returns 0x00000000
T2DA0 008:370.756 JLINK_ReadReg(FPS17)
T2DA0 008:370.767 - 0.010ms returns 0x00000000
T2DA0 008:370.778 JLINK_ReadReg(FPS18)
T2DA0 008:370.789 - 0.010ms returns 0x00000000
T2DA0 008:370.801 JLINK_ReadReg(FPS19)
T2DA0 008:370.811 - 0.010ms returns 0x00000000
T2DA0 008:370.823 JLINK_ReadReg(FPS20)
T2DA0 008:370.841 - 0.017ms returns 0x00000000
T2DA0 008:370.856 JLINK_ReadReg(FPS21)
T2DA0 008:370.866 - 0.010ms returns 0x00000000
T2DA0 008:370.878 JLINK_ReadReg(FPS22)
T2DA0 008:370.889 - 0.010ms returns 0x00000000
T2DA0 008:370.901 JLINK_ReadReg(FPS23)
T2DA0 008:370.911 - 0.010ms returns 0x00000000
T2DA0 008:370.922 JLINK_ReadReg(FPS24)
T2DA0 008:370.933 - 0.010ms returns 0x00000000
T2DA0 008:370.945 JLINK_ReadReg(FPS25)
T2DA0 008:370.955 - 0.010ms returns 0x00000000
T2DA0 008:370.967 JLINK_ReadReg(FPS26)
T2DA0 008:370.977 - 0.010ms returns 0x00000000
T2DA0 008:370.989 JLINK_ReadReg(FPS27)
T2DA0 008:371.000 - 0.010ms returns 0x00000000
T2DA0 008:371.011 JLINK_ReadReg(FPS28)
T2DA0 008:371.022 - 0.010ms returns 0x00000000
T2DA0 008:371.034 JLINK_ReadReg(FPS29)
T2DA0 008:371.045 - 0.010ms returns 0x00000000
T2DA0 008:371.056 JLINK_ReadReg(FPS30)
T2DA0 008:371.067 - 0.010ms returns 0x00000000
T2DA0 008:371.079 JLINK_ReadReg(FPS31)
T2DA0 008:371.090 - 0.010ms returns 0x00000000
T2E74 008:372.601 JLINK_ReadMemEx(0x20000A14, 0x4 Bytes, Flags = 0x02000000)
T2E74 008:372.642   CPU_ReadMem(64 bytes @ 0x20000A00)
T2E74 008:373.791    -- Updating C cache (64 bytes @ 0x20000A00)
T2E74 008:373.824    -- Read from C cache (4 bytes @ 0x20000A14)
T2E74 008:373.840   Data:  C5 1C 00 08
T2E74 008:373.856 - 1.255ms returns 4 (0x4)
T2E74 008:373.877 JLINK_ReadMemEx(0x20000A14, 0x4 Bytes, Flags = 0x02000000)
T2E74 008:373.893    -- Read from C cache (4 bytes @ 0x20000A14)
T2E74 008:373.908   Data:  C5 1C 00 08
T2E74 008:373.922 - 0.045ms returns 4 (0x4)
T2E74 008:373.938 JLINK_ReadMemEx(0x20000A2C, 0x4 Bytes, Flags = 0x02000000)
T2E74 008:373.951    -- Read from C cache (4 bytes @ 0x20000A2C)
T2E74 008:373.966   Data:  35 17 00 08
T2E74 008:373.981 - 0.042ms returns 4 (0x4)
T2E74 008:373.994 JLINK_ReadMemEx(0x20000A18, 0x4 Bytes, Flags = 0x02000000)
T2E74 008:374.006    -- Read from C cache (4 bytes @ 0x20000A18)
T2E74 008:374.021   Data:  DC 02 00 20
T2E74 008:374.035 - 0.041ms returns 4 (0x4)
T2E74 008:374.047 JLINK_ReadMemEx(0x20000A1C, 0x4 Bytes, Flags = 0x02000000)
T2E74 008:374.059    -- Read from C cache (4 bytes @ 0x20000A1C)
T2E74 008:374.073   Data:  BC 02 00 20
T2E74 008:374.088 - 0.041ms returns 4 (0x4)
T2E74 008:374.100 JLINK_ReadMemEx(0x20000A20, 0x4 Bytes, Flags = 0x02000000)
T2E74 008:374.111    -- Read from C cache (4 bytes @ 0x20000A20)
T2E74 008:374.126   Data:  00 00 00 00
T2E74 008:374.141 - 0.041ms returns 4 (0x4)
T2E74 008:374.153 JLINK_ReadMemEx(0x20000A24, 0x4 Bytes, Flags = 0x02000000)
T2E74 008:374.165    -- Read from C cache (4 bytes @ 0x20000A24)
T2E74 008:374.180   Data:  00 00 00 00
T2E74 008:374.194 - 0.041ms returns 4 (0x4)
T2E74 008:374.206 JLINK_ReadMemEx(0x20000A28, 0x4 Bytes, Flags = 0x02000000)
T2E74 008:374.217    -- Read from C cache (4 bytes @ 0x20000A28)
T2E74 008:374.233   Data:  00 00 00 00
T2E74 008:374.247 - 0.041ms returns 4 (0x4)
T2E74 008:374.260 JLINK_ReadMemEx(0x20000A2C, 0x4 Bytes, Flags = 0x02000000)
T2E74 008:374.271    -- Read from C cache (4 bytes @ 0x20000A2C)
T2E74 008:374.286   Data:  35 17 00 08
T2E74 008:374.301 - 0.040ms returns 4 (0x4)
T2E74 008:374.313 JLINK_ReadMemEx(0x20000A34, 0x4 Bytes, Flags = 0x02000000)
T2E74 008:374.325    -- Read from C cache (4 bytes @ 0x20000A34)
T2E74 008:374.339   Data:  BB 02 00 08
T2E74 008:374.353 - 0.040ms returns 4 (0x4)
T2E74 008:374.383 JLINK_ReadMemEx(0x20000A30, 0x4 Bytes, Flags = 0x02000000)
T2E74 008:374.397    -- Read from C cache (4 bytes @ 0x20000A30)
T2E74 008:374.411   Data:  DC 02 00 20
T2E74 008:374.426 - 0.044ms returns 4 (0x4)
T2E74 008:374.439 JLINK_ReadMemEx(0x20000A34, 0x4 Bytes, Flags = 0x02000000)
T2E74 008:374.450    -- Read from C cache (4 bytes @ 0x20000A34)
T2E74 008:374.465   Data:  BB 02 00 08
T2E74 008:374.480 - 0.041ms returns 4 (0x4)
T2E74 008:374.514 JLINK_HasError()
T2E74 008:374.529 JLINK_ReadMemU32(0xE0001004, 0x1 Items)
T2E74 008:374.545   CPU_ReadMem(4 bytes @ 0xE0001004)
T2E74 008:375.096   Data:  B0 10 00 00
T2E74 008:375.129   Debug reg: DWT_CYCCNT
T2E74 008:375.153 - 0.624ms returns 1 (0x1)
T2DA0 009:568.794 JLINK_ReadMemEx(0x08001E20, 0x2 Bytes, Flags = 0x02000000)
T2DA0 009:568.846   CPU_ReadMem(64 bytes @ 0x08001E00)
T2DA0 009:569.947    -- Updating C cache (64 bytes @ 0x08001E00)
T2DA0 009:569.979    -- Read from C cache (2 bytes @ 0x08001E20)
T2DA0 009:569.995   Data:  AB BE
T2DA0 009:570.011 - 1.218ms returns 2 (0x2)
T2DA0 009:570.027 JLINK_HasError()
T2DA0 009:570.042 JLINK_WriteReg(R15 (PC), 0x08001E22)
T2DA0 009:570.057 - 0.014ms returns 0
T2DA0 009:570.069 JLINK_HasError()
T2DA0 009:570.082 JLINK_SetBPEx(Addr = 0x08015EE4, Type = 0xFFFFFFF2)
T2DA0 009:570.094 - 0.013ms returns 0x00000004
T2DA0 009:570.106 JLINK_HasError()
T2DA0 009:570.118 JLINK_HasError()
T2DA0 009:570.130 JLINK_Go()
T2DA0 009:570.741   CPU_WriteMem(4 bytes @ 0xE0002000)
T2DA0 009:571.286   CPU_ReadMem(4 bytes @ 0xE0001000)
T2DA0 009:573.025 - 2.894ms 
T2DA0 009:673.518 JLINK_HasError()
T2DA0 009:673.614 JLINK_IsHalted()
T2DA0 009:678.836 - 5.219ms returns TRUE
T2DA0 009:678.941 JLINK_HasError()
T2DA0 009:678.978 JLINK_Halt()
T2DA0 009:679.005 - 0.026ms returns 0x00
T2DA0 009:679.220 JLINK_IsHalted()
T2DA0 009:679.290 - 0.069ms returns TRUE
T2DA0 009:679.323 JLINK_IsHalted()
T2DA0 009:679.350 - 0.026ms returns TRUE
T2DA0 009:679.379 JLINK_IsHalted()
T2DA0 009:679.406 - 0.025ms returns TRUE
T2DA0 009:679.436 JLINK_HasError()
T2DA0 009:679.470 JLINK_ReadReg(R15 (PC))
T2DA0 009:679.507 - 0.036ms returns 0x08001E20
T2DA0 009:679.538 JLINK_ReadReg(XPSR)
T2DA0 009:679.566 - 0.027ms returns 0x21000000
T2DA0 009:679.603 JLINK_HasError()
T2DA0 009:679.635 JLINK_ClrBPEx(BPHandle = 0x00000004)
T2DA0 009:679.665 - 0.029ms returns 0x00
T2DA0 009:679.694 JLINK_HasError()
T2DA0 009:679.725 JLINK_HasError()
T2DA0 009:679.757 JLINK_ReadMemU32(0xE000ED30, 0x1 Items)
T2DA0 009:679.803   CPU_ReadMem(4 bytes @ 0xE000ED30)
T2DA0 009:680.570   Data:  02 00 00 00
T2DA0 009:680.648 - 0.890ms returns 1 (0x1)
T2DA0 009:680.687 JLINK_ReadMemU32(0xE0001028, 0x1 Items)
T2DA0 009:680.734   CPU_ReadMem(4 bytes @ 0xE0001028)
T2DA0 009:681.494   Data:  00 00 00 00
T2DA0 009:681.550   Debug reg: DWT_FUNC[0]
T2DA0 009:681.577 - 0.890ms returns 1 (0x1)
T2DA0 009:681.604 JLINK_ReadMemU32(0xE0001038, 0x1 Items)
T2DA0 009:681.637   CPU_ReadMem(4 bytes @ 0xE0001038)
T2DA0 009:682.341   Data:  00 02 00 00
T2DA0 009:682.395   Debug reg: DWT_FUNC[1]
T2DA0 009:682.423 - 0.819ms returns 1 (0x1)
T2DA0 009:682.450 JLINK_ReadMemU32(0xE0001048, 0x1 Items)
T2DA0 009:682.482   CPU_ReadMem(4 bytes @ 0xE0001048)
T2DA0 009:683.126   Data:  00 00 00 00
T2DA0 009:683.181   Debug reg: DWT_FUNC[2]
T2DA0 009:683.208 - 0.758ms returns 1 (0x1)
T2DA0 009:683.235 JLINK_ReadMemU32(0xE0001058, 0x1 Items)
T2DA0 009:683.269   CPU_ReadMem(4 bytes @ 0xE0001058)
T2DA0 009:683.925   Data:  00 00 00 00
T2DA0 009:683.979   Debug reg: DWT_FUNC[3]
T2DA0 009:684.006 - 0.771ms returns 1 (0x1)
T2DA0 009:684.158 JLINK_HasError()
T2DA0 009:684.187 JLINK_ReadReg(R0)
T2DA0 009:684.212 - 0.024ms returns 0x00000001
T2DA0 009:684.234 JLINK_ReadReg(R1)
T2DA0 009:684.253 - 0.018ms returns 0x20000A08
T2DA0 009:684.273 JLINK_ReadReg(R2)
T2DA0 009:684.291 - 0.018ms returns 0x80000000
T2DA0 009:684.312 JLINK_ReadReg(R3)
T2DA0 009:684.340 - 0.028ms returns 0x0801879B
T2DA0 009:684.351 JLINK_ReadReg(R4)
T2DA0 009:684.362 - 0.010ms returns 0x00000004
T2DA0 009:684.373 JLINK_ReadReg(R5)
T2DA0 009:684.384 - 0.010ms returns 0x00000002
T2DA0 009:684.395 JLINK_ReadReg(R6)
T2DA0 009:684.406 - 0.010ms returns 0x20000268
T2DA0 009:684.418 JLINK_ReadReg(R7)
T2DA0 009:684.428 - 0.010ms returns 0x0801879A
T2DA0 009:684.439 JLINK_ReadReg(R8)
T2DA0 009:684.450 - 0.010ms returns 0x00000000
T2DA0 009:684.461 JLINK_ReadReg(R9)
T2DA0 009:684.473 - 0.011ms returns 0x00000000
T2DA0 009:684.484 JLINK_ReadReg(R10)
T2DA0 009:684.494 - 0.010ms returns 0x0801D4D4
T2DA0 009:684.506 JLINK_ReadReg(R11)
T2DA0 009:684.517 - 0.010ms returns 0x00000000
T2DA0 009:684.528 JLINK_ReadReg(R12)
T2DA0 009:684.545 - 0.016ms returns 0x00000000
T2DA0 009:684.560 JLINK_ReadReg(R13 (SP))
T2DA0 009:684.571 - 0.011ms returns 0x20000A08
T2DA0 009:684.583 JLINK_ReadReg(R14)
T2DA0 009:684.594 - 0.010ms returns 0x08001E1B
T2DA0 009:684.606 JLINK_ReadReg(R15 (PC))
T2DA0 009:684.616 - 0.010ms returns 0x08001E20
T2DA0 009:684.627 JLINK_ReadReg(XPSR)
T2DA0 009:684.638 - 0.010ms returns 0x21000000
T2DA0 009:684.650 JLINK_ReadReg(MSP)
T2DA0 009:684.660 - 0.010ms returns 0x20000A08
T2DA0 009:684.672 JLINK_ReadReg(PSP)
T2DA0 009:684.682 - 0.010ms returns 0x00000000
T2DA0 009:684.694 JLINK_ReadReg(CFBP)
T2DA0 009:684.704 - 0.010ms returns 0x04000000
T2DA0 009:684.716 JLINK_ReadReg(FPSCR)
T2DA0 009:691.862 - 7.145ms returns 0x03000000
T2DA0 009:691.890 JLINK_ReadReg(FPS0)
T2DA0 009:691.905 - 0.013ms returns 0x00000000
T2DA0 009:691.917 JLINK_ReadReg(FPS1)
T2DA0 009:691.928 - 0.010ms returns 0x00000000
T2DA0 009:691.939 JLINK_ReadReg(FPS2)
T2DA0 009:691.950 - 0.010ms returns 0x00000000
T2DA0 009:691.962 JLINK_ReadReg(FPS3)
T2DA0 009:691.973 - 0.010ms returns 0x00000000
T2DA0 009:691.984 JLINK_ReadReg(FPS4)
T2DA0 009:691.994 - 0.010ms returns 0x00000000
T2DA0 009:692.006 JLINK_ReadReg(FPS5)
T2DA0 009:692.017 - 0.010ms returns 0x00000000
T2DA0 009:692.028 JLINK_ReadReg(FPS6)
T2DA0 009:692.038 - 0.010ms returns 0x00000000
T2DA0 009:692.050 JLINK_ReadReg(FPS7)
T2DA0 009:692.061 - 0.010ms returns 0x00000000
T2DA0 009:692.072 JLINK_ReadReg(FPS8)
T2DA0 009:692.082 - 0.010ms returns 0x00000000
T2DA0 009:692.094 JLINK_ReadReg(FPS9)
T2DA0 009:692.105 - 0.010ms returns 0x00000000
T2DA0 009:692.116 JLINK_ReadReg(FPS10)
T2DA0 009:692.126 - 0.010ms returns 0x00000000
T2DA0 009:692.138 JLINK_ReadReg(FPS11)
T2DA0 009:692.149 - 0.010ms returns 0x00000000
T2DA0 009:692.160 JLINK_ReadReg(FPS12)
